
**** 02/11/13 13:46:17 *********** Evaluation PSpice (Nov 1999) **************

 555d Astable Simulation


 ****     CIRCUIT DESCRIPTION


******************************************************************************



.lib eval.lib

Vcc 1 0 DC 5V

R1 1 3 100K
R2 3 4 10K
RL 5 0 1K

C1 4 0 47uF
C2 2 0 10nF

X1 0 4 5 1 2 4 3 1 555d

.TRAN 1e-3 20  
.PROBE
.END


**** Generated AtoD and DtoA Interfaces ****

*
* Analog/Digital interface for node 1
*
* Moving X1.u1:CLRBAR from analog node 1 to new digital node 1$AtoD
X$1_AtoD1
+ 1
+ 1$AtoD
+ 1
+ 0
+ atod_555
+       PARAMS: CAPACITANCE=   0     
*
* Analog/Digital interface for node 5
*
* Moving X1.u1:Q1 from analog node 5 to new digital node 5$DtoA
X$5_DtoA1
+ 5$DtoA
+ 5
+ 1
+ 0
+ dtoa_555
+       PARAMS: DRVH=  96.4   DRVL= 104    CAPACITANCE=   0     
*
* Analog/Digital interface for node X1.qb
*
* Moving X1.u1:QBAR1 from analog node X1.qb to new digital node X1.qb$DtoA
X$X1.qb_DtoA1
+ X1.qb$DtoA
+ X1.qb
+ 1
+ 0
+ dtoa_555
+       PARAMS: DRVH=  96.4   DRVL= 104    CAPACITANCE=   0     
*
* Analog/Digital interface power supply subcircuits
*

X$DIGIFPWR 0 DIGIFPWR

**** 02/11/13 13:46:17 *********** Evaluation PSpice (Nov 1999) **************

 555d Astable Simulation


 ****     MOSFET MODEL PARAMETERS


******************************************************************************




               X1.nchan        
               NMOS            
       LEVEL    1            
           L  100.000000E-06 
           W  100.000000E-06 
         VTO    0            
          KP   20.000000E-06 
       GAMMA    0            
         PHI     .6          
      LAMBDA    0            
          IS   10.000000E-15 
          JS    0            
          PB     .8          
        PBSW     .8          
          CJ    0            
        CJSW    0            
        CGSO    1.000000E-12 
        CGDO    1.000000E-12 
        CGBO    1.000000E-12 
         TOX    0            
          XJ    0            
       UCRIT   10.000000E+03 
      DIOMOD    1            
         VFB    0            
        LETA    0            
        WETA    0            
          U0    0            
        TEMP    0            
         VDD    0            
       XPART    0            


**** 02/11/13 13:46:17 *********** Evaluation PSpice (Nov 1999) **************

 555d Astable Simulation


 ****     Digital Input MODEL PARAMETERS


******************************************************************************




               din555          
        FILE DSO_DTOA        
      FORMAT    6            
    TIMESTEP  100.000000E-12 
      S0NAME 0               
       S0TSW  700.000000E-12 
       S0RLO  100            
       S0RHI    1.000000E+06 
      S1NAME 1               
       S1TSW  700.000000E-12 
       S1RLO    1.000000E+06 
       S1RHI  300            
      S2NAME x               
       S2TSW  700.000000E-12 
       S2RLO  200            
       S2RHI  200            
      S3NAME r               
       S3TSW  700.000000E-12 
       S3RLO  200            
       S3RHI  200            
      S4NAME f               
       S4TSW  700.000000E-12 
       S4RLO  200            
       S4RHI  200            
      S5NAME z               
       S5TSW  700.000000E-12 
       S5RLO  200.000000E+03 
       S5RHI  200.000000E+03 


**** 02/11/13 13:46:17 *********** Evaluation PSpice (Nov 1999) **************

 555d Astable Simulation


 ****     Digital Output MODEL PARAMETERS


******************************************************************************




               X1.cmp          do555           
        FILE DSO_ATOD        DSO_ATOD        
      FORMAT    6               6            
     CHGONLY    1               1            
    TIMESTEP  100.000000E-12  100.000000E-12 
      S0NAME 0               X               
       S0VHI                    2            
       S0VLO -500                .8          
      S1NAME 1               0               
       S1VHI  500                .8          
       S1VLO                   -1.5          
      S2NAME                 R               
       S2VHI                    1.4          
       S2VLO                     .8          
      S3NAME                 R               
       S3VHI                    2            
       S3VLO                    1.3          
      S4NAME                 X               
       S4VHI                    2            
       S4VLO                     .8          
      S5NAME                 1               
       S5VHI                   50            
       S5VLO                    2            
      S6NAME                 F               
       S6VHI                    2            
       S6VLO                    1.3          
      S7NAME                 F               
       S7VHI                    1.4          
       S7VLO                     .8          


**** 02/11/13 13:46:17 *********** Evaluation PSpice (Nov 1999) **************

 555d Astable Simulation


 ****     Digital Gated FF MODEL PARAMETERS


******************************************************************************




               X1.t_srff       
    TPDQLHMN    0            
    TPDQLHTY    0            
    TPDQLHMX    0            
    TPDQHLMN    0            
    TPDQHLTY    0            
    TPDQHLMX    0            
    TPGQLHMN    0            
    TPGQLHTY    0            
    TPGQLHMX    0            
    TPGQHLMN    0            
    TPGQHLTY    0            
    TPGQHLMX    0            
   TPPCQLHMN   48.000000E-09 
   TPPCQLHTY  120.000000E-09 
   TPPCQLHMX  192.000000E-09 
   TPPCQHLMN    0            
   TPPCQHLTY    0            
   TPPCQHLMX    0            
      TWGHMN    0            
      TWGHTY    0            
      TWGHMX    0            
     TWPCLMN    0            
     TWPCLTY    0            
     TWPCLMX    0            
     TSUDGMN    0            
     TSUDGTY    0            
     TSUDGMX    0            
   TSUPCGHMN    0            
   TSUPCGHTY    0            
   TSUPCGHMX    0            
      THDGMN    0            
      THDGTY    0            
      THDGMX    0            


**** 02/11/13 13:46:17 *********** Evaluation PSpice (Nov 1999) **************

 555d Astable Simulation


 ****     Digital Delay Line MODEL PARAMETERS


******************************************************************************




               X1.dlymod       
       DLYMN  166.666700E-09 
       DLYTY  166.666700E-09 
       DLYMX  166.666700E-09 


**** 02/11/13 13:46:17 *********** Evaluation PSpice (Nov 1999) **************

 555d Astable Simulation


 ****     Digital IO  MODEL PARAMETERS


******************************************************************************




               X1.io_555       io_std          io_stm          
        DRVL  104             104               0            
        DRVH   96.4            96.4             0            
       AtoD1 atod_555        AtoD_STD                        
       AtoD2 atod_555        AtoD_STD_NX                     
       AtoD3 atod_555        AtoD_STD                        
       AtoD4 atod_555        AtoD_STD_NX                     
       DtoA1 dtoa_555        DtoA_STD        DtoA_STM        
       DtoA2 dtoa_555        DtoA_STD        DtoA_STM        
       DtoA3 dtoa_555        DtoA_STD        DtoA_STM        
       DtoA4 dtoa_555        DtoA_STD        DtoA_STM        
      TSWHL1                    1.373000E-09                 
      TSWHL2                    1.346000E-09                 
      TSWHL3                    1.511000E-09                 
      TSWHL4                    1.487000E-09                 
      TSWLH1                    3.382000E-09                 
      TSWLH2                    3.424000E-09                 
      TSWLH3                    3.517000E-09                 
      TSWLH4                    3.564000E-09                 
       TPWRT  100.000000E+03  100.000000E+03  100.000000E+03 


**** 02/11/13 13:46:17 *********** Evaluation PSpice (Nov 1999) **************

 555d Astable Simulation


 ****     INITIAL TRANSIENT SOLUTION       TEMPERATURE =   27.000 DEG C


******************************************************************************



 NODE   VOLTAGE     NODE   VOLTAGE     NODE   VOLTAGE     NODE   VOLTAGE


(    1)    5.0000  (    2)    3.3333  (    3)    4.9999  (    4)    4.9999      

(    5)    3.8453  (X1.qb) 500.0E-06  ($G_DGND)    0.0000                       

($G_DPWR)    5.0000                   (X1.botm)    1.6667                   



 DGTL NODE : STATE  DGTL NODE : STATE  DGTL NODE : STATE  DGTL NODE : STATE


(   X1.rd) : 1     (   X1.hi) : 1     ( X1.strt) : 0     (X1.qb$DtoA) : 0       

(    X1.s) : 0     (  5$DtoA) : 1     (  1$AtoD) : 1     (    X1.r) : 1         

(   X1.sd) : 0     




    VOLTAGE SOURCE CURRENTS
    NAME         CURRENT

    Vcc         -3.982E-03
    X$DIGIFPWR.VDPWR  -5.000E-06
    X$DIGIFPWR.VDGND  -5.000E-06

    TOTAL POWER DISSIPATION   1.99E-02  WATTS



          JOB CONCLUDED

          TOTAL JOB TIME             .28
