
**** 04/16/13 19:33:59 *********** Evaluation PSpice (Nov 1999) **************

 One Transistor Current Source


 ****     CIRCUIT DESCRIPTION


******************************************************************************



.lib eval.lib

VCC 1 0 15V
RL 1 3 10k
R1 1 2 2.35Meg
Q1 3 2 0 Q2N2222
.MODEL Q2N2222 NPN(BF=300)

.TRAN 10us 2ms
.PROBE
.END

**** 04/16/13 19:33:59 *********** Evaluation PSpice (Nov 1999) **************

 One Transistor Current Source


 ****     BJT MODEL PARAMETERS


******************************************************************************




               Q2N2222         
               NPN             
          IS  100.000000E-18 
          BF  300            
          NF    1            
          BR    1            
          NR    1            
          CN    2.42         
           D     .87         


**** 04/16/13 19:33:59 *********** Evaluation PSpice (Nov 1999) **************

 One Transistor Current Source


 ****     INITIAL TRANSIENT SOLUTION       TEMPERATURE =   27.000 DEG C


******************************************************************************



 NODE   VOLTAGE     NODE   VOLTAGE     NODE   VOLTAGE     NODE   VOLTAGE


(    1)   15.0000  (    2)     .7844  (    3)     .1863  




    VOLTAGE SOURCE CURRENTS
    NAME         CURRENT

    VCC         -1.487E-03

    TOTAL POWER DISSIPATION   2.23E-02  WATTS



          JOB CONCLUDED

          TOTAL JOB TIME            0.00
