
**** 04/16/13 19:39:19 *********** Evaluation PSpice (Nov 1999) **************

 Willard Current Source


 ****     CIRCUIT DESCRIPTION


******************************************************************************



.LIB eval.lib

VCC 1 0 15V
R1 1 2 14.9k
RL 1 3 10k
RE1 4 0 560
Q1 3 2 4 Q2N2222
Q2 2 2 0 Q2N2222
.MODEL Q2N2222 NPN(BF=300)

.TRAN 10us 2ms
.PROBE
.END

**** 04/16/13 19:39:19 *********** Evaluation PSpice (Nov 1999) **************

 Willard Current Source


 ****     BJT MODEL PARAMETERS


******************************************************************************




               Q2N2222         
               NPN             
          IS  100.000000E-18 
          BF  300            
          NF    1            
          BR    1            
          NR    1            
          CN    2.42         
           D     .87         


**** 04/16/13 19:39:19 *********** Evaluation PSpice (Nov 1999) **************

 Willard Current Source


 ****     INITIAL TRANSIENT SOLUTION       TEMPERATURE =   27.000 DEG C


******************************************************************************



 NODE   VOLTAGE     NODE   VOLTAGE     NODE   VOLTAGE     NODE   VOLTAGE


(    1)   15.0000  (    2)     .7729  (    3)   13.9750  (    4)     .0576  




    VOLTAGE SOURCE CURRENTS
    NAME         CURRENT

    VCC         -1.057E-03

    TOTAL POWER DISSIPATION   1.59E-02  WATTS



          JOB CONCLUDED

          TOTAL JOB TIME             .02
