
**** 02/19/13 18:13:18 *********** Evaluation PSpice (Nov 1999) **************

 Class AB Audio Amplifier Open Loop


 ****     CIRCUIT DESCRIPTION


******************************************************************************



.lib eval.lib

Vin 1 0 sin(0 0.2V 1k)
Vcc 9 0 DC 15V
Vee 13 0 DC -15V

R1 2 0 500
R2 2 3 12k
Ra 3 4 510
X0 1 2 9 13 3 LM324

X1 9 6 10 Q2N6059
X3 13 8 12 Q2N6052

Ren 10 11 2.7
Rep 12 11 2.7
Rl 11 0 8

Rd1 6 5 40
Rd2 8 7 40
Rb1 9 6 1400
Rb2 13 8 1400

D1 5 4 D1N914
D2 4 7 D1N914

.TRAN 1us 2ms
.FOUR 1k 10 V(7)
.PROBE
.END

**** 02/19/13 18:13:18 *********** Evaluation PSpice (Nov 1999) **************

 Class AB Audio Amplifier Open Loop


 ****     Diode MODEL PARAMETERS


******************************************************************************




               D1N914          X0.dx           X1.Dmodel       X3.Dmodel       
          IS  168.100000E-21  800.000000E-18    5.325300E-12    5.325300E-12 
           N                                    3.4748          3.4748       
         ISR  100.000000E-12                  100.000000E-12  100.000000E-12 
          BV  100                             120             120            
         IBV  100.000000E-06                    1.000000E-06    1.000000E-06 
          RS     .1             1               1.000000E-03    1.000000E-03 
          TT   11.540000E-09                    5.000000E-09    5.000000E-09 
         CJO    4.000000E-12                    1.000000E-12    1.000000E-12 
          VJ     .75                             .75             .75         
           M     .3333                           .3333           .3333       


**** 02/19/13 18:13:18 *********** Evaluation PSpice (Nov 1999) **************

 Class AB Audio Amplifier Open Loop


 ****     BJT MODEL PARAMETERS


******************************************************************************




               X0.qx           X1.Q1model      X1.Q2model      X3.Q1model      
               PNP             NPN             NPN             PNP             
          IS  800.000000E-18    1.501000E-12    1.501000E-12    1.500000E-12 
          BF  166.7           772.1           772.1             2.997000E+03 
          NF    1               1               1               1            
         VAF                  100             100             100            
         IKF                     .1298           .1298           .263        
         ISE                  163.800000E-12  163.800000E-12    6.747000E-12 
          NE                    1.998           1.998           1.413        
          BR    1             499.5           499.5           499.5          
          NR    1               1               1               1            
         VAR                  100             100             100            
         IKR                   19.98           19.98           19.98         
         ISC                    1.536000E-12    1.536000E-12   19.590000E-12 
          NC                    2.997           2.997           2.997        
          NK                     .5077           .5077           .5779       
          RB                    1.101           1.101           1.0845       
          RC                     .1498           .1498           .196311     
         CJE                  316.600000E-12  316.600000E-12  316.600000E-12 
         VJE                     .436            .436            .436        
         MJE                     .2878           .2878           .2878       
         CJC                  189.300000E-12                  372.500000E-12 
         VJC                     .6244           .6244          1.177        
         MJC                     .1866           .1866           .2738       
        XCJC                     .9              .9              .9          
          TF                   16.416000E-09   16.416000E-09    9.781000E-09 
         XTF                    1               1               1            
         VTF                   10              10              10            
         ITF                     .01             .01             .01         
          TR                   13.837000E-09   13.837000E-09    7.561000E-09 
          CN    2.2             2.42            2.42            2.2          
           D     .52             .87             .87             .52         


               X3.Q2model      
               PNP             
          IS    1.500000E-12 
          BF    2.997000E+03 
          NF    1            
         VAF  100            
         IKF     .263        
         ISE    6.747000E-12 
          NE    1.413        
          BR  499.5          
          NR    1            
         VAR  100            
         IKR   19.98         
         ISC   19.590000E-12 
          NC    2.997        
          NK     .5779       
          RB    1.0845       
          RC     .196311     
         CJE  316.600000E-12 
         VJE     .436        
         MJE     .2878       
         VJC    1.177        
         MJC     .2738       
        XCJC     .9          
          TF    9.781000E-09 
         XTF    1            
         VTF   10            
         ITF     .01         
          TR    7.561000E-09 
          CN    2.2          
           D     .52         


**** 02/19/13 18:13:18 *********** Evaluation PSpice (Nov 1999) **************

 Class AB Audio Amplifier Open Loop


 ****     INITIAL TRANSIENT SOLUTION       TEMPERATURE =   27.000 DEG C


******************************************************************************



 NODE   VOLTAGE     NODE   VOLTAGE     NODE   VOLTAGE     NODE   VOLTAGE


(    1)    0.0000  (    2)-192.4E-06  (    3)    -.0054  (    4)     .0085      

(    5)     .9686  (    6)    1.3526  (    7)    -.9515  (    8)   -1.3344      

(    9)   15.0000  (   10)     .1409  (   11)     .0062  (   12)    -.1265      

(   13)  -15.0000  ( X0.6) 1.324E-06  ( X0.7)    -.0067  ( X0.8)    -.0067      

( X0.9)    0.0000  ( X1.4)     .7631  ( X3.4)    -.7458  (X0.10)     .6076      

(X0.11)  -14.9600  (X0.12)  -14.9600  (X0.13)     .5937  (X0.14)     .5937      

(X0.53)   13.5000  (X0.54)  -14.3500  (X0.90)    -.0276  (X0.91)   40.0000      

(X0.92)  -40.0000  (X0.99)    0.0000  




    VOLTAGE SOURCE CURRENTS
    NAME         CURRENT

    Vin          4.473E-08
    Vcc         -6.282E-02
    Vee          6.202E-02
    X0.vb        1.324E-11
    X0.vc        1.351E-11
    X0.ve        1.435E-11
    X0.vlim     -2.758E-05
    X0.vlp      -4.003E-11
    X0.vln      -3.998E-11

    TOTAL POWER DISSIPATION   1.87E+00  WATTS


**** 02/19/13 18:13:18 *********** Evaluation PSpice (Nov 1999) **************

 Class AB Audio Amplifier Open Loop


 ****     FOURIER ANALYSIS                 TEMPERATURE =   27.000 DEG C


******************************************************************************



FOURIER COMPONENTS OF TRANSIENT RESPONSE V(7)



 DC COMPONENT =  -9.530021E-01

 HARMONIC   FREQUENCY    FOURIER    NORMALIZED    PHASE        NORMALIZED
    NO         (HZ)     COMPONENT    COMPONENT    (DEG)       PHASE (DEG)

     1     1.000E+03    2.889E+00    1.000E+00   -1.538E+00    0.000E+00
     2     2.000E+03    9.997E-04    3.460E-04    9.691E+01    9.998E+01
     3     3.000E+03    2.231E-03    7.722E-04   -9.310E+00   -4.695E+00
     4     4.000E+03    2.215E-04    7.667E-05    1.328E+02    1.389E+02
     5     5.000E+03    9.148E-04    3.166E-04   -8.839E+01   -8.070E+01
     6     6.000E+03    2.907E-04    1.006E-04    1.093E+02    1.185E+02
     7     7.000E+03    7.879E-04    2.727E-04    1.659E+02    1.767E+02
     8     8.000E+03    1.966E-04    6.805E-05   -2.615E+01   -1.384E+01
     9     9.000E+03    7.393E-04    2.559E-04    8.759E+01    1.014E+02
    10     1.000E+04    3.192E-04    1.105E-04   -1.013E+02   -8.589E+01


     TOTAL HARMONIC DISTORTION =   9.944588E-02 PERCENT


          JOB CONCLUDED

          TOTAL JOB TIME             .08
