
**** 02/19/13 17:52:44 *********** Evaluation PSpice (Nov 1999) **************

 Class B Audio Amplifier Open Loop


 ****     CIRCUIT DESCRIPTION


******************************************************************************



.lib eval.lib

Vin 1 0 sin(0 0.2V 1k)
Vcc 5 0 DC 15V
Vee 9 0 DC -15V

R1 2 0 500
R2 2 3 12k
Ra 3 4 510
X0 1 2 5 9 3 LM324

X1 5 4 6 Q2N6059
X3 9 4 8 Q2N6052

Ren 6 7 2.7
Rep 8 7 2.7
Rl 7 0 100

.TRAN 1us 2ms
.FOUR 1k 10 V(7)
.PROBE
.END

**** 02/19/13 17:52:44 *********** Evaluation PSpice (Nov 1999) **************

 Class B Audio Amplifier Open Loop


 ****     Diode MODEL PARAMETERS


******************************************************************************




               X0.dx           X1.Dmodel       X3.Dmodel       
          IS  800.000000E-18    5.325300E-12    5.325300E-12 
           N                    3.4748          3.4748       
         ISR                  100.000000E-12  100.000000E-12 
          BV                  120             120            
         IBV                    1.000000E-06    1.000000E-06 
          RS    1               1.000000E-03    1.000000E-03 
          TT                    5.000000E-09    5.000000E-09 
         CJO                    1.000000E-12    1.000000E-12 
          VJ                     .75             .75         
           M                     .3333           .3333       


**** 02/19/13 17:52:44 *********** Evaluation PSpice (Nov 1999) **************

 Class B Audio Amplifier Open Loop


 ****     BJT MODEL PARAMETERS


******************************************************************************




               X0.qx           X1.Q1model      X1.Q2model      X3.Q1model      
               PNP             NPN             NPN             PNP             
          IS  800.000000E-18    1.501000E-12    1.501000E-12    1.500000E-12 
          BF  166.7           772.1           772.1             2.997000E+03 
          NF    1               1               1               1            
         VAF                  100             100             100            
         IKF                     .1298           .1298           .263        
         ISE                  163.800000E-12  163.800000E-12    6.747000E-12 
          NE                    1.998           1.998           1.413        
          BR    1             499.5           499.5           499.5          
          NR    1               1               1               1            
         VAR                  100             100             100            
         IKR                   19.98           19.98           19.98         
         ISC                    1.536000E-12    1.536000E-12   19.590000E-12 
          NC                    2.997           2.997           2.997        
          NK                     .5077           .5077           .5779       
          RB                    1.101           1.101           1.0845       
          RC                     .1498           .1498           .196311     
         CJE                  316.600000E-12  316.600000E-12  316.600000E-12 
         VJE                     .436            .436            .436        
         MJE                     .2878           .2878           .2878       
         CJC                  189.300000E-12                  372.500000E-12 
         VJC                     .6244           .6244          1.177        
         MJC                     .1866           .1866           .2738       
        XCJC                     .9              .9              .9          
          TF                   16.416000E-09   16.416000E-09    9.781000E-09 
         XTF                    1               1               1            
         VTF                   10              10              10            
         ITF                     .01             .01             .01         
          TR                   13.837000E-09   13.837000E-09    7.561000E-09 
          CN    2.2             2.42            2.42            2.2          
           D     .52             .87             .87             .52         


               X3.Q2model      
               PNP             
          IS    1.500000E-12 
          BF    2.997000E+03 
          NF    1            
         VAF  100            
         IKF     .263        
         ISE    6.747000E-12 
          NE    1.413        
          BR  499.5          
          NR    1            
         VAR  100            
         IKR   19.98         
         ISC   19.590000E-12 
          NC    2.997        
          NK     .5779       
          RB    1.0845       
          RC     .196311     
         CJE  316.600000E-12 
         VJE     .436        
         MJE     .2878       
         VJC    1.177        
         MJC     .2738       
        XCJC     .9          
          TF    9.781000E-09 
         XTF    1            
         VTF   10            
         ITF     .01         
          TR    7.561000E-09 
          CN    2.2          
           D     .52         


**** 02/19/13 17:52:44 *********** Evaluation PSpice (Nov 1999) **************

 Class B Audio Amplifier Open Loop


 ****     INITIAL TRANSIENT SOLUTION       TEMPERATURE =   27.000 DEG C


******************************************************************************



 NODE   VOLTAGE     NODE   VOLTAGE     NODE   VOLTAGE     NODE   VOLTAGE


(    1)    0.0000  (    2)-192.5E-06  (    3)    -.0054  (    4)    -.0045      

(    5)   15.0000  (    6)-172.9E-06  (    7)-170.6E-06  (    8)-172.9E-06      

(    9)  -15.0000  ( X0.6) 959.9E-09  ( X0.7)    -.0055  ( X0.8)    -.0055      

( X0.9)    0.0000  ( X1.4)-215.6E-06  ( X3.4)-215.6E-06  (X0.10)     .6076      

(X0.11)  -14.9600  (X0.12)  -14.9600  (X0.13)     .5937  (X0.14)     .5937      

(X0.53)   13.5000  (X0.54)  -14.3500  (X0.90)    -.0021  (X0.91)   40.0000      

(X0.92)  -40.0000  (X0.99)    0.0000  




    VOLTAGE SOURCE CURRENTS
    NAME         CURRENT

    Vin          4.473E-08
    Vcc         -3.318E-03
    Vee          3.318E-03
    X0.vb        9.599E-12
    X0.vc        1.351E-11
    X0.ve        1.435E-11
    X0.vlim     -2.136E-06
    X0.vlp      -4.000E-11
    X0.vln      -4.000E-11

    TOTAL POWER DISSIPATION   9.95E-02  WATTS


**** 02/19/13 17:52:44 *********** Evaluation PSpice (Nov 1999) **************

 Class B Audio Amplifier Open Loop


 ****     FOURIER ANALYSIS                 TEMPERATURE =   27.000 DEG C


******************************************************************************



FOURIER COMPONENTS OF TRANSIENT RESPONSE V(7)



 DC COMPONENT =   2.417239E-03

 HARMONIC   FREQUENCY    FOURIER    NORMALIZED    PHASE        NORMALIZED
    NO         (HZ)     COMPONENT    COMPONENT    (DEG)       PHASE (DEG)

     1     1.000E+03    3.180E+00    1.000E+00   -1.599E+00    0.000E+00
     2     2.000E+03    2.722E-03    8.560E-04   -1.323E+02   -1.291E+02
     3     3.000E+03    3.785E-01    1.190E-01    1.759E+02    1.807E+02
     4     4.000E+03    2.764E-03    8.694E-04   -1.450E+02   -1.386E+02
     5     5.000E+03    1.240E-01    3.901E-02    1.732E+02    1.812E+02
     6     6.000E+03    1.526E-03    4.799E-04   -1.174E+02   -1.078E+02
     7     7.000E+03    4.338E-02    1.364E-02    1.690E+02    1.802E+02
     8     8.000E+03    1.904E-03    5.989E-04   -4.117E+01   -2.838E+01
     9     9.000E+03    2.281E-02    7.172E-03    1.631E+02    1.775E+02
    10     1.000E+04    2.871E-03    9.028E-04   -2.416E+01   -8.164E+00


     TOTAL HARMONIC DISTORTION =   1.262201E+01 PERCENT


          JOB CONCLUDED

          TOTAL JOB TIME             .09
