
**** 04/13/13 21:54:25 *********** Evaluation PSpice (Nov 1999) **************

 2nd order low pass filter


 ****     CIRCUIT DESCRIPTION


******************************************************************************



.lib eval.lib

V3 6 0 15V
V4 7 0 -15V
Vin 1 0 AC 1V

R1 1 2 2.27k
R2 2 3 2.27K
C1 3 0 0.1u
C2 2 5 0.1u
R3 5 4 10k
R4 4 0 10k

X1 3 4 6 7 5 LM324

.AC DEC 50 100 1000k
.probe
.END

**** 04/13/13 21:54:25 *********** Evaluation PSpice (Nov 1999) **************

 2nd order low pass filter


 ****     Diode MODEL PARAMETERS


******************************************************************************




               X1.dx           
          IS  800.000000E-18 
          RS    1            


**** 04/13/13 21:54:25 *********** Evaluation PSpice (Nov 1999) **************

 2nd order low pass filter


 ****     BJT MODEL PARAMETERS


******************************************************************************




               X1.qx           
               PNP             
          IS  800.000000E-18 
          BF  166.7          
          NF    1            
          BR    1            
          NR    1            
          CN    2.2          
           D     .52         


**** 04/13/13 21:54:25 *********** Evaluation PSpice (Nov 1999) **************

 2nd order low pass filter


 ****     SMALL SIGNAL BIAS SOLUTION       TEMPERATURE =   27.000 DEG C


******************************************************************************



 NODE   VOLTAGE     NODE   VOLTAGE     NODE   VOLTAGE     NODE   VOLTAGE


(    1)    0.0000  (    2) 101.5E-06  (    3) 203.1E-06  (    4) 12.00E-06      

(    5)-425.5E-06  (    6)   15.0000  (    7)  -15.0000  ( X1.6) 27.98E-06      

( X1.7)    -.0981  ( X1.8)    -.0981  ( X1.9)    0.0000  (X1.10)     .6078      

(X1.11)  -14.9600  (X1.12)  -14.9600  (X1.13)     .5939  (X1.14)     .5939      

(X1.53)   13.5000  (X1.54)  -14.3500  (X1.90)   -1.9532  (X1.91)   40.0000      

(X1.92)  -40.0000  (X1.99)    0.0000  




    VOLTAGE SOURCE CURRENTS
    NAME         CURRENT

    V3          -3.318E-03
    V4           3.318E-03
    Vin          4.473E-08
    X1.vb        2.798E-10
    X1.vc        1.350E-11
    X1.ve        1.435E-11
    X1.vlim     -1.953E-03
    X1.vlp      -4.195E-11
    X1.vln      -3.805E-11

    TOTAL POWER DISSIPATION   9.95E-02  WATTS



          JOB CONCLUDED

          TOTAL JOB TIME             .02
