
**** 04/13/13 21:52:38 *********** Evaluation PSpice (Nov 1999) **************

 4th order high pass filter


 ****     CIRCUIT DESCRIPTION


******************************************************************************



.LIB eval.lib

Vin 1 0 AC 1

C1 1 2 .01uF
C2 2 3 .01uF

X 3 4 5 6 7 LF411

VCC 5 0 15V
VEE 6 0 -15V

R2 2 7 1.77k
R1 3 0 1.77k
R3 7 4 1.52k
R4 4 0 10k
C3 7 8 .01uF
C4 8 9 .01uF

X2 9 10 5 6 11 LF411

R5 8 11 1.77k
R6 9 0 1.77k
R7 11 10 12.35k
R8 10 0 10k
RL 11 0 1k

.AC dec 5 100 1000k
.probe
.end

**** 04/13/13 21:52:38 *********** Evaluation PSpice (Nov 1999) **************

 4th order high pass filter


 ****     Diode MODEL PARAMETERS


******************************************************************************




               X.dx            X2.dx           
          IS  800.000000E-18  800.000000E-18 
          RS    1.000000E-03    1.000000E-03 


**** 04/13/13 21:52:38 *********** Evaluation PSpice (Nov 1999) **************

 4th order high pass filter


 ****     Junction FET MODEL PARAMETERS


******************************************************************************




               X.jx            X2.jx           
               NJF             NJF             
         VTO   -1              -1            
        BETA  743.300000E-06  743.300000E-06 
          IS   12.500000E-12   12.500000E-12 


**** 04/13/13 21:52:38 *********** Evaluation PSpice (Nov 1999) **************

 4th order high pass filter


 ****     SMALL SIGNAL BIAS SOLUTION       TEMPERATURE =   27.000 DEG C


******************************************************************************



 NODE   VOLTAGE     NODE   VOLTAGE     NODE   VOLTAGE     NODE   VOLTAGE


(    1)    0.0000  (    2)-3.786E-06  (    3) 71.37E-09  (    4)-3.234E-06      

(    5)   15.0000  (    6)  -15.0000  (    7)-3.786E-06  (    8)-7.725E-06      

(    9) 71.37E-09  (   10)-3.234E-06  (   11)-7.725E-06  (  X.6)-202.8E-09      

(  X.7)-3.804E-06  (  X.8)-3.804E-06  (  X.9)    0.0000  ( X.10)     .6613      

( X.11)   14.6610  ( X.12)   14.6610  ( X.53)   13.5000  ( X.54)  -13.5000      

( X.90)     .0035  ( X.91)   25.0000  ( X.92)  -25.0000  ( X.99)    0.0000      

( X2.6)-202.2E-09  ( X2.7)-8.130E-06  ( X2.8)-8.130E-06  ( X2.9)    0.0000      

(X2.10)     .6613  (X2.11)   14.6610  (X2.12)   14.6610  (X2.53)   13.5000      

(X2.54)  -13.5000  (X2.90)     .0034  (X2.91)   25.0000  (X2.92)  -25.0000      

(X2.99)    0.0000  




    VOLTAGE SOURCE CURRENTS
    NAME         CURRENT

    Vin          0.000E+00
    VCC         -4.341E-03
    VEE          4.340E-03
    X.vb        -2.028E-12
    X.vc         1.350E-11
    X.ve         1.455E-11
    X.vlim       3.454E-06
    X.vlp       -2.500E-11
    X.vln       -2.547E-11
    X2.vb       -2.022E-12
    X2.vc        1.350E-11
    X2.ve        1.455E-11
    X2.vlim      3.447E-06
    X2.vlp      -2.500E-11
    X2.vln      -2.547E-11

    TOTAL POWER DISSIPATION   1.30E-01  WATTS



          JOB CONCLUDED

          TOTAL JOB TIME             .02
