
**** 04/13/13 21:50:41 *********** Evaluation PSpice (Nov 1999) **************

 Fourth order low pass filter


 ****     CIRCUIT DESCRIPTION


******************************************************************************



.LIB eval.lib

Vin 1 0 AC 1

R1 1 2 22.7k
R2 2 3 22.7k
X 3 4 5 6 7 LF411

VCC 5 0 15V
VEE 6 0 -15V

C1 2 7 .01uF
C2 3 0 .01uF
C3 9 0 .01uF
C4 8 11 .01uF

RFk 4 7 1k
Rf 4 0 10k
R5 7 8 22.7k
R6 8 9 22.7k
X2 9 10 5 6 11 LF411

RFk2 10 11 1k
Rf2 10 0 10k

.AC dec 1000 100 1000k
.probe
.end 

**** 04/13/13 21:50:41 *********** Evaluation PSpice (Nov 1999) **************

 Fourth order low pass filter


 ****     Diode MODEL PARAMETERS


******************************************************************************




               X.dx            X2.dx           
          IS  800.000000E-18  800.000000E-18 
          RS    1.000000E-03    1.000000E-03 


**** 04/13/13 21:50:41 *********** Evaluation PSpice (Nov 1999) **************

 Fourth order low pass filter


 ****     Junction FET MODEL PARAMETERS


******************************************************************************




               X.jx            X2.jx           
               NJF             NJF             
         VTO   -1              -1            
        BETA  743.300000E-06  743.300000E-06 
          IS   12.500000E-12   12.500000E-12 


**** 04/13/13 21:50:41 *********** Evaluation PSpice (Nov 1999) **************

 Fourth order low pass filter


 ****     SMALL SIGNAL BIAS SOLUTION       TEMPERATURE =   27.000 DEG C


******************************************************************************



 NODE   VOLTAGE     NODE   VOLTAGE     NODE   VOLTAGE     NODE   VOLTAGE


(    1)    0.0000  (    2) 915.3E-09  (    3) 1.831E-06  (    4)-1.475E-06      

(    5)   15.0000  (    6)  -15.0000  (    7)-1.662E-06  (    8)-747.2E-09      

(    9) 168.2E-09  (   10)-3.137E-06  (   11)-3.491E-06  (  X.6)-203.0E-09      

(  X.7)-1.674E-06  (  X.8)-1.674E-06  (  X.9)    0.0000  ( X.10)     .6613      

( X.11)   14.6610  ( X.12)   14.6610  ( X.53)   13.5000  ( X.54)  -13.5000      

( X.90)     .0035  ( X.91)   25.0000  ( X.92)  -25.0000  ( X.99)    0.0000      

( X2.6)-202.8E-09  ( X2.7)-3.509E-06  ( X2.8)-3.509E-06  ( X2.9)    0.0000      

(X2.10)     .6613  (X2.11)   14.6610  (X2.12)   14.6610  (X2.53)   13.5000      

(X2.54)  -13.5000  (X2.90)     .0035  (X2.91)   25.0000  (X2.92)  -25.0000      

(X2.99)    0.0000  




    VOLTAGE SOURCE CURRENTS
    NAME         CURRENT

    Vin          4.032E-11
    VCC         -4.341E-03
    VEE          4.340E-03
    X.vb        -2.030E-12
    X.vc         1.350E-11
    X.ve         1.455E-11
    X.vlim       3.455E-06
    X.vlp       -2.500E-11
    X.vln       -2.547E-11
    X2.vb       -2.028E-12
    X2.vc        1.350E-11
    X2.ve        1.455E-11
    X2.vlim      3.454E-06
    X2.vlp      -2.500E-11
    X2.vln      -2.547E-11

    TOTAL POWER DISSIPATION   1.30E-01  WATTS



          JOB CONCLUDED

          TOTAL JOB TIME             .30
