
**** 01/23/13 12:21:34 *********** Evaluation PSpice (Nov 1999) **************

 deBouncing Switch


 ****     CIRCUIT DESCRIPTION


******************************************************************************




.lib eval.lib

S1 1 0 2 0 SMOD


.MODEL SMOD VSWITCH(RON=1)

R1 3 1 1K
VCC 3 0 DC 5V
V2 4 0 PWL(1E-3 0V 1.0001E-3 5V 1.01E-3 5V 1.0101E-3 0V 1.02E-3 0V 1.0201E-3 5V 1.03E-3 5V 1.0301E-3 0V 1.04E-3 0V 1.0401E-3 5V )

V3 2 4 PWL(2E-3 0V 2.0001E-3 -5V 2.01E-3 -5V 2.0101E-3 0V 2.02E-3 0V 2.0201E-3 -5V 2.03E-3 -5V 2.0301E-3 0V 
+    2.04E-3 0V 2.0401E-3 -5V )

R2 1 5 1K
C1 5 0 4nF

X1 5 6 7414
R3 6 0 1K


.TRAN 20E-6 3E-3 
.PROBE
.END


**** Generated AtoD and DtoA Interfaces ****

*
* Analog/Digital interface for node 5
*
* Moving X1.U1:IN1 from analog node 5 to new digital node 5$AtoD
X$5_AtoD1
+ 5
+ 5$AtoD
+ $G_DPWR
+ $G_DGND
+ AtoD_STD_ST
+       PARAMS: CAPACITANCE=   0     
*
* Analog/Digital interface for node 6
*
* Moving X1.U1:OUT1 from analog node 6 to new digital node 6$DtoA
X$6_DtoA1
+ 6$DtoA
+ 6
+ $G_DPWR
+ $G_DGND
+ DtoA_STD
+       PARAMS: DRVH=  96.4   DRVL= 104    CAPACITANCE=   0     
*
* Analog/Digital interface power supply subcircuits
*

X$DIGIFPWR 0 DIGIFPWR

**** 01/23/13 12:21:34 *********** Evaluation PSpice (Nov 1999) **************

 deBouncing Switch


 ****     Diode MODEL PARAMETERS


******************************************************************************




               D74CLMP         D74             
          IS    1.000000E-15  100.000000E-18 
          RS    2              25            
         CJO    2.000000E-12    2.000000E-12 


**** 01/23/13 12:21:34 *********** Evaluation PSpice (Nov 1999) **************

 deBouncing Switch


 ****     BJT MODEL PARAMETERS


******************************************************************************




               Q74             
               NPN             
          IS  100.000000E-18 
          BF   49            
          NF    1            
         ISE  100.000000E-18 
          BR     .03         
          NR    1            
         ISC  400.000000E-18 
          RB   50            
          RC   20            
         CJE    1.000000E-12 
         VJE     .9          
         MJE     .5          
         CJC  500.000000E-15 
         VJC     .8          
         CJS    3.000000E-12 
         VJS     .7          
         MJS     .33         
          TF  200.000000E-12 
          TR   10.000000E-09 
          CN    2.42         
           D     .87         


**** 01/23/13 12:21:34 *********** Evaluation PSpice (Nov 1999) **************

 deBouncing Switch


 ****     Voltage Controlled Switch MODEL PARAMETERS


******************************************************************************




               SMOD            
         RON    1            
        ROFF    1.000000E+06 
         VON    1            
        VOFF    0            


**** 01/23/13 12:21:34 *********** Evaluation PSpice (Nov 1999) **************

 deBouncing Switch


 ****     Digital Input MODEL PARAMETERS


******************************************************************************




               DIN74           
        FILE DSO_DTOA        
      FORMAT    6            
    TIMESTEP  100.000000E-12 
      S0NAME 0               
       S0TSW    3.500000E-09 
       S0RLO    7.13         
       S0RHI  389            
      S1NAME 1               
       S1TSW    5.500000E-09 
       S1RLO  467            
       S1RHI  200            
      S2NAME X               
       S2TSW    3.500000E-09 
       S2RLO   42.9          
       S2RHI  116            
      S3NAME R               
       S3TSW    3.500000E-09 
       S3RLO   42.9          
       S3RHI  116            
      S4NAME F               
       S4TSW    3.500000E-09 
       S4RLO   42.9          
       S4RHI  116            
      S5NAME Z               
       S5TSW    3.500000E-09 
       S5RLO  200.000000E+03 
       S5RHI  200.000000E+03 


**** 01/23/13 12:21:34 *********** Evaluation PSpice (Nov 1999) **************

 deBouncing Switch


 ****     Digital Output MODEL PARAMETERS


******************************************************************************




               DO74_ST         
        FILE DSO_ATOD        
      FORMAT    6            
     CHGONLY    1            
    TIMESTEP  100.000000E-12 
      S0NAME 0               
       S0VHI    1.7          
       S0VLO   -1.5          
      S1NAME 1               
       S1VHI    7            
       S1VLO     .9          


**** 01/23/13 12:21:34 *********** Evaluation PSpice (Nov 1999) **************

 deBouncing Switch


 ****     Digital Gate MODEL PARAMETERS


******************************************************************************




               D_14            
      TPLHMN    6.000000E-09 
      TPLHTY   15.000000E-09 
      TPLHMX   22.000000E-09 
      TPHLMN    6.000000E-09 
      TPHLTY   15.000000E-09 
      TPHLMX   22.000000E-09 


**** 01/23/13 12:21:34 *********** Evaluation PSpice (Nov 1999) **************

 deBouncing Switch


 ****     Digital IO  MODEL PARAMETERS


******************************************************************************




               IO_STD_ST       IO_STD          
        DRVL  104             104            
        DRVH   96.4            96.4          
       AtoD1 AtoD_STD_ST     AtoD_STD        
       AtoD2 AtoD_STD_ST     AtoD_STD_NX     
       AtoD3 AtoD_STD_ST     AtoD_STD        
       AtoD4 AtoD_STD_ST     AtoD_STD_NX     
       DtoA1 DtoA_STD        DtoA_STD        
       DtoA2 DtoA_STD        DtoA_STD        
       DtoA3 DtoA_STD        DtoA_STD        
       DtoA4 DtoA_STD        DtoA_STD        
      TSWHL1    1.373000E-09    1.373000E-09 
      TSWHL2    1.346000E-09    1.346000E-09 
      TSWHL3    1.511000E-09    1.511000E-09 
      TSWHL4    1.487000E-09    1.487000E-09 
      TSWLH1    3.382000E-09    3.382000E-09 
      TSWLH2    3.424000E-09    3.424000E-09 
      TSWLH3    3.517000E-09    3.517000E-09 
      TSWLH4    3.564000E-09    3.564000E-09 
       TPWRT  100.000000E+03  100.000000E+03 


**** 01/23/13 12:21:34 *********** Evaluation PSpice (Nov 1999) **************

 deBouncing Switch


 ****     INITIAL TRANSIENT SOLUTION       TEMPERATURE =   27.000 DEG C


******************************************************************************



 NODE   VOLTAGE     NODE   VOLTAGE     NODE   VOLTAGE     NODE   VOLTAGE


(    1)    4.9747  (    2)    0.0000  (    3)    5.0000  (    4)    0.0000      

(    5)    4.9543  (    6)     .0894  ($G_DGND)    0.0000                       

($G_DPWR)    5.0000                   (X$5_AtoD1.1)    1.5648                   

(X$5_AtoD1.2)     .7824               (X$5_AtoD1.3)    2.2862               



 DGTL NODE : STATE  DGTL NODE : STATE  DGTL NODE : STATE  DGTL NODE : STATE


(  6$DtoA) : 0     (  5$AtoD) : 1     




    VOLTAGE SOURCE CURRENTS
    NAME         CURRENT

    VCC         -2.533E-05
    V2           0.000E+00
    V3           0.000E+00
    X$DIGIFPWR.VDPWR  -1.331E-02
    X$DIGIFPWR.VDGND  -7.402E-05

    TOTAL POWER DISSIPATION   6.67E-02  WATTS



          JOB CONCLUDED

          TOTAL JOB TIME             .05
