
**** 03/27/13 17:38:28 *********** Evaluation PSpice (Nov 1999) **************

 signal generator


 ****     CIRCUIT DESCRIPTION


******************************************************************************



.LIB eval.lib
VCC 15 0 15V
VEE 16 0 -15V

*Schmitt Trigger
R300 1 2 100k
R301 2 4 100k
X1 2 0 15 16 3 LM324
R302 3 4 1k
D300 5 4 D1N750 
D302 5 0 D1N750 
*set to operate at 10 Hz
R310 4 6 1k
RFREQ 6 7 249k
*comment out above two lines and uncomment following line to operate at 2500 Hz
*R310 4 7 1k

*Integrator
X2 0 7 15 16 8 LM324
C310 7 8 100n IC=5V
R320 8 9 3.3k
R321 9 0 1.8k
RJUMP300 1 8 100
X3 9 10 15 16 10 LM324

*Diode wave shaping circuit
R330 10 11 1k
D330 12 11 D1N4148 
D331 11 12 D1N4148 
R331 12 0 2.7k
D332 13 11 D1N4148 
D333 0 13 D1N4148 
D334 11 14 D1N4148 
D335 14 0 D1N4148

.TRAN 5ns .2s
.FOUR 10Hz V(11)
.PROBE
.END

**** 03/27/13 17:38:28 *********** Evaluation PSpice (Nov 1999) **************

 signal generator


 ****     Diode MODEL PARAMETERS


******************************************************************************




               D1N750          D1N4148         X1.dx           X2.dx           
          IS  880.500000E-18    2.682000E-09  800.000000E-18  800.000000E-18 
           N                    1.836                                        
         ISR    1.859000E-09    1.565000E-09                                 
         IKF                     .04417                                      
          BV    4.7           100                                            
         IBV     .020245      100.000000E-06                                 
         NBV    1.6989                                                       
        IBVL    1.955600E-03                                                 
        NBVL   14.976                                                        
          RS     .25             .5664          1               1            
          TT                   11.540000E-09                                 
         CJO  175.000000E-12    4.000000E-12                                 
          VJ     .75             .5                                          
           M     .5516           .3333                                       
        TBV1  -21.277000E-06                                                 


               X3.dx           
          IS  800.000000E-18 
          RS    1            


**** 03/27/13 17:38:28 *********** Evaluation PSpice (Nov 1999) **************

 signal generator


 ****     BJT MODEL PARAMETERS


******************************************************************************




               X1.qx           X2.qx           X3.qx           
               PNP             PNP             PNP             
          IS  800.000000E-18  800.000000E-18  800.000000E-18 
          BF  166.7           166.7           166.7          
          NF    1               1               1            
          BR    1               1               1            
          NR    1               1               1            
          CN    2.2             2.2             2.2          
           D     .52             .52             .52         


**** 03/27/13 17:38:28 *********** Evaluation PSpice (Nov 1999) **************

 signal generator


 ****     INITIAL TRANSIENT SOLUTION       TEMPERATURE =   27.000 DEG C


******************************************************************************



 NODE   VOLTAGE     NODE   VOLTAGE     NODE   VOLTAGE     NODE   VOLTAGE


(    1)   -4.9951  (    2) 250.9E-06  (    3)    5.7589  (    4)    4.9912      

(    5)     .6914  (    6)    4.9712  (    7)-141.6E-06  (    8)   -5.0001      

(    9)   -1.7647  (   10)   -1.7643  (   11)   -1.1261  (   12)    -.5934      

(   13)    -.5630  (   14)    -.5630  (   15)   15.0000  (   16)  -15.0000      

( X1.6)    -.0011  ( X1.7)    5.7973  ( X1.8)    5.7973  ( X1.9)    0.0000      

( X2.6) 958.4E-06  ( X2.7)   -5.0527  ( X2.8)   -5.0527  ( X2.9)    0.0000      

( X3.6) 342.0E-06  ( X3.7)   -1.7962  ( X3.8)   -1.7962  ( X3.9)    0.0000      

(X1.10)     .6078  (X1.11)  -14.9600  (X1.12)  -14.9600  (X1.13)     .5939      

(X1.14)     .5940  (X1.53)   13.5000  (X1.54)  -14.3500  (X1.90)     .7677      

(X1.91)   40.0000  (X1.92)  -40.0000  (X1.99)    0.0000  (X2.10)     .6076      

(X2.11)  -14.9600  (X2.12)  -14.9600  (X2.13)     .5937  (X2.14)     .5938      

(X2.53)   13.5000  (X2.54)  -14.3500  (X2.90)   -1.0504  (X2.91)   40.0000      

(X2.92)  -40.0000  (X2.99)    0.0000  (X3.10)   -1.1565  (X3.11)  -14.9600      

(X3.12)  -14.9600  (X3.13)   -1.1704  (X3.14)   -1.1706  (X3.53)   13.5000      

(X3.54)  -14.3500  (X3.90)    -.6383  (X3.91)   40.0000  (X3.92)  -40.0000      

(X3.99)    0.0000  




    VOLTAGE SOURCE CURRENTS
    NAME         CURRENT

    VCC         -9.955E-03
    VEE          9.955E-03
    X1.vb       -1.098E-08
    X1.vc        7.742E-12
    X1.ve        2.011E-11
    X1.vlim      7.677E-04
    X1.vlp      -3.923E-11
    X1.vln      -4.077E-11
    X2.vb        9.584E-09
    X2.vc        1.850E-11
    X2.ve        9.351E-12
    X2.vlim     -1.050E-03
    X2.vlp      -4.105E-11
    X2.vln      -3.895E-11
    X3.vb        3.420E-09
    X3.vc        1.527E-11
    X3.ve        1.259E-11
    X3.vlim     -6.383E-04
    X3.vlp      -4.064E-11
    X3.vln      -3.937E-11

    TOTAL POWER DISSIPATION   2.99E-01  WATTS


**** 03/27/13 17:38:28 *********** Evaluation PSpice (Nov 1999) **************

 signal generator


 ****     FOURIER ANALYSIS                 TEMPERATURE =   27.000 DEG C


******************************************************************************



FOURIER COMPONENTS OF TRANSIENT RESPONSE V(11)



 DC COMPONENT =   4.675464E-03

 HARMONIC   FREQUENCY    FOURIER    NORMALIZED    PHASE        NORMALIZED
    NO         (HZ)     COMPONENT    COMPONENT    (DEG)       PHASE (DEG)

     1     1.000E+01    1.145E+00    1.000E+00   -1.003E+02    0.000E+00
     2     2.000E+01    3.788E-03    3.308E-03   -9.669E+01    1.038E+02
     3     3.000E+01    1.401E-02    1.223E-02    5.907E+01    3.598E+02
     4     4.000E+01    6.561E-04    5.729E-04   -1.059E+02    2.951E+02
     5     5.000E+01    4.836E-03    4.223E-03   -1.399E+02    3.614E+02
     6     6.000E+01    5.397E-04    4.713E-04   -1.126E+02    4.889E+02
     7     7.000E+01    4.565E-04    3.986E-04   -1.344E+02    5.674E+02
     8     8.000E+01    1.885E-04    1.646E-04   -9.290E+01    7.092E+02
     9     9.000E+01    3.839E-03    3.352E-03   -1.796E+02    7.227E+02


     TOTAL HARMONIC DISTORTION =   1.379858E+00 PERCENT


          JOB CONCLUDED

          TOTAL JOB TIME             .08
