
**** 02/11/13 22:36:16 *********** Evaluation PSpice (Nov 1999) **************

 opamp circuit


 ****     CIRCUIT DESCRIPTION


******************************************************************************



.lib eval.lib

X1 0 2 4 5 3 LM324
VS 1 0 PULSE(0 1 0 10nS 10nS .8e-3 1.6e-3) Ac 1
* V3 1 0 AC 1
R1 1 2 1K 
RF 2 3 10K
V1 4 0 15V
V2 5 0 -15V

.AC DEC 100 1Hz 1MEG
.PROBE
.END

**** 02/11/13 22:36:16 *********** Evaluation PSpice (Nov 1999) **************

 opamp circuit


 ****     Diode MODEL PARAMETERS


******************************************************************************




               X1.dx           
          IS  800.000000E-18 
          RS    1            


**** 02/11/13 22:36:16 *********** Evaluation PSpice (Nov 1999) **************

 opamp circuit


 ****     BJT MODEL PARAMETERS


******************************************************************************




               X1.qx           
               PNP             
          IS  800.000000E-18 
          BF  166.7          
          NF    1            
          BR    1            
          NR    1            
          CN    2.2          
           D     .52         


**** 02/11/13 22:36:16 *********** Evaluation PSpice (Nov 1999) **************

 opamp circuit


 ****     SMALL SIGNAL BIAS SOLUTION       TEMPERATURE =   27.000 DEG C


******************************************************************************



 NODE   VOLTAGE     NODE   VOLTAGE     NODE   VOLTAGE     NODE   VOLTAGE


(    1)    0.0000  (    2)-192.5E-06  (    3)    -.0026  (    4)   15.0000      

(    5)  -15.0000  ( X1.6) 407.2E-09  ( X1.7)    -.0026  ( X1.8)    -.0026      

( X1.9)    0.0000  (X1.10)     .6076  (X1.11)  -14.9600  (X1.12)  -14.9600      

(X1.13)     .5937  (X1.14)     .5937  (X1.53)   13.5000  (X1.54)  -14.3500      

(X1.90)-237.4E-06  (X1.91)   40.0000  (X1.92)  -40.0000  (X1.99)    0.0000  




    VOLTAGE SOURCE CURRENTS
    NAME         CURRENT

    VS          -1.925E-07
    V1          -3.318E-03
    V2           3.318E-03
    X1.vb        4.072E-12
    X1.vc        1.350E-11
    X1.ve        1.435E-11
    X1.vlim     -2.374E-07
    X1.vlp      -4.000E-11
    X1.vln      -4.000E-11

    TOTAL POWER DISSIPATION   9.95E-02  WATTS



          JOB CONCLUDED

          TOTAL JOB TIME             .16
