
**** 02/15/13 00:18:23 *********** Evaluation PSpice (Nov 1999) **************

 GB Product


 ****     CIRCUIT DESCRIPTION


******************************************************************************



.lib eval.lib

Vin 1 0 AC 1v
X1 0 2 4 5 3 UA741
R1 1 2 1K
RF 2 3 10K
RL 3 0 10K
VP 4 0 DC 15v
VN 5 0 DC -15

.AC DEC 100 1Hz 100MEG
.PROBE
.END

**** 02/15/13 00:18:23 *********** Evaluation PSpice (Nov 1999) **************

 GB Product


 ****     Diode MODEL PARAMETERS


******************************************************************************




               X1.dx           
          IS  800.000000E-18 
          RS    1            


**** 02/15/13 00:18:23 *********** Evaluation PSpice (Nov 1999) **************

 GB Product


 ****     BJT MODEL PARAMETERS


******************************************************************************




               X1.qx           
               NPN             
          IS  800.000000E-18 
          BF   93.75         
          NF    1            
          BR    1            
          NR    1            
          CN    2.42         
           D     .87         


**** 02/15/13 00:18:23 *********** Evaluation PSpice (Nov 1999) **************

 GB Product


 ****     SMALL SIGNAL BIAS SOLUTION       TEMPERATURE =   27.000 DEG C


******************************************************************************



 NODE   VOLTAGE     NODE   VOLTAGE     NODE   VOLTAGE     NODE   VOLTAGE


(    1)    0.0000  (    2) 20.73E-06  (    3)     .0010  (    4)   15.0000      

(    5)  -15.0000  ( X1.6) 27.88E-06  ( X1.7)    -.0966  ( X1.8)    -.0966      

( X1.9)    0.0000  (X1.10)    -.6077  (X1.11)   14.9600  (X1.12)   14.9600      

(X1.13)    -.5938  (X1.14)    -.5938  (X1.53)   14.0000  (X1.54)  -14.0000      

(X1.90)   -1.9529  (X1.91)   40.0000  (X1.92)  -40.0000  (X1.99)    0.0000  




    VOLTAGE SOURCE CURRENTS
    NAME         CURRENT

    Vin          2.073E-08
    VP          -1.667E-03
    VN           1.667E-03
    X1.vb        2.788E-10
    X1.vc        1.400E-11
    X1.ve        1.400E-11
    X1.vlim     -1.953E-03
    X1.vlp      -4.195E-11
    X1.vln      -3.805E-11

    TOTAL POWER DISSIPATION   5.00E-02  WATTS



          JOB CONCLUDED

          TOTAL JOB TIME             .05
